Freq.	V(2)/V(1)
Step Information: R=8  (Run: 1/3)
1.00000000000000e+001	(-1.91765414868005e+001dB,8.36863149026092e+001°)
1.00461579027840e+001	(-1.91370050398935e+001dB,8.36573930318301e+001°)
1.00925288607668e+001	(-1.90974728320132e+001dB,8.36283407062298e+001°)
1.01391138573668e+001	(-1.90579449014608e+001dB,8.35991573653167e+001°)
1.01859138805412e+001	(-1.90184212868753e+001dB,8.35698424465761e+001°)
1.02329299228075e+001	(-1.89789020272361e+001dB,8.35403953854689e+001°)
1.02801629812647e+001	(-1.89393871618656e+001dB,8.35108156154294e+001°)
1.03276140576140e+001	(-1.88998767304326e+001dB,8.34811025678640e+001°)
1.03752841581801e+001	(-1.88603707729545e+001dB,8.34512556721494e+001°)
1.04231742939330e+001	(-1.88208693298010e+001dB,8.34212743556312e+001°)
1.04712854805090e+001	(-1.87813724416961e+001dB,8.33911580436226e+001°)
1.05196187382322e+001	(-1.87418801497220e+001dB,8.33609061594029e+001°)
1.05681750921366e+001	(-1.87023924953212e+001dB,8.33305181242164e+001°)
1.06169555719873e+001	(-1.86629095203001e+001dB,8.32999933572718e+001°)
1.06659612123026e+001	(-1.86234312668319e+001dB,8.32693312757402e+001°)
1.07151930523761e+001	(-1.85839577774593e+001dB,8.32385312947552e+001°)
1.07646521362984e+001	(-1.85444890950978e+001dB,8.32075928274115e+001°)
1.08143395129794e+001	(-1.85050252630389e+001dB,8.31765152847648e+001°)
1.08642562361707e+001	(-1.84655663249529e+001dB,8.31452980758304e+001°)
1.09144033644876e+001	(-1.84261123248922e+001dB,8.31139406075835e+001°)
1.09647819614319e+001	(-1.83866633072945e+001dB,8.30824422849588e+001°)
1.10153930954142e+001	(-1.83472193169856e+001dB,8.30508025108496e+001°)
1.10662378397767e+001	(-1.83077803991832e+001dB,8.30190206861085e+001°)
1.11173172728159e+001	(-1.82683465994994e+001dB,8.29870962095470e+001°)
1.11686324778056e+001	(-1.82289179639445e+001dB,8.29550284779357e+001°)
1.12201845430197e+001	(-1.81894945389299e+001dB,8.29228168860044e+001°)
1.12719745617551e+001	(-1.81500763712715e+001dB,8.28904608264428e+001°)
1.13240036323556e+001	(-1.81106635081932e+001dB,8.28579596899007e+001°)
1.13762728582343e+001	(-1.80712559973296e+001dB,8.28253128649886e+001°)
1.14287833478977e+001	(-1.80318538867301e+001dB,8.27925197382789e+001°)
1.14815362149689e+001	(-1.79924572248618e+001dB,8.27595796943062e+001°)
1.15345325782109e+001	(-1.79530660606129e+001dB,8.27264921155687e+001°)
1.15877735615513e+001	(-1.79136804432962e+001dB,8.26932563825292e+001°)
1.16412602941049e+001	(-1.78743004226527e+001dB,8.26598718736163e+001°)
1.16949939101987e+001	(-1.78349260488548e+001dB,8.26263379652262e+001°)
1.17489755493953e+001	(-1.77955573725097e+001dB,8.25926540317239e+001°)
1.18032063565173e+001	(-1.77561944446633e+001dB,8.25588194454449e+001°)
1.18576874816716e+001	(-1.77168373168033e+001dB,8.25248335766976e+001°)
1.19124200802738e+001	(-1.76774860408630e+001dB,8.24906957937645e+001°)
1.19674053130725e+001	(-1.76381406692249e+001dB,8.24564054629051e+001°)
1.20226443461742e+001	(-1.75988012547239e+001dB,8.24219619483577e+001°)
1.20781383510678e+001	(-1.75594678506515e+001dB,8.23873646123422e+001°)
1.21338885046498e+001	(-1.75201405107589e+001dB,8.23526128150626e+001°)
1.21898959892487e+001	(-1.74808192892612e+001dB,8.23177059147099e+001°)
1.22461619926505e+001	(-1.74415042408405e+001dB,8.22826432674646e+001°)
1.23026877081239e+001	(-1.74021954206501e+001dB,8.22474242275007e+001°)
1.23594743344451e+001	(-1.73628928843180e+001dB,8.22120481469881e+001°)
1.24165230759242e+001	(-1.73235966879505e+001dB,8.21765143760965e+001°)
1.24738351424295e+001	(-1.72843068881365e+001dB,8.21408222629991e+001°)
1.25314117494142e+001	(-1.72450235419506e+001dB,8.21049711538762e+001°)
1.25892541179417e+001	(-1.72057467069578e+001dB,8.20689603929192e+001°)
1.26473634747116e+001	(-1.71664764412163e+001dB,8.20327893223350e+001°)
1.27057410520855e+001	(-1.71272128032823e+001dB,8.19964572823500e+001°)
1.27643880881135e+001	(-1.70879558522135e+001dB,8.19599636112148e+001°)
1.28233058265603e+001	(-1.70487056475729e+001dB,8.19233076452091e+001°)
1.28824955169314e+001	(-1.70094622494330e+001dB,8.18864887186464e+001°)
1.29419584144999e+001	(-1.69702257183797e+001dB,8.18495061638791e+001°)
1.30016957803330e+001	(-1.69309961155163e+001dB,8.18123593113040e+001°)
1.30617088813185e+001	(-1.68917735024673e+001dB,8.17750474893676e+001°)
1.31219989901921e+001	(-1.68525579413828e+001dB,8.17375700245718e+001°)
1.31825673855641e+001	(-1.68133494949424e+001dB,8.16999262414802e+001°)
1.32434153519467e+001	(-1.67741482263591e+001dB,8.16621154627235e+001°)
1.33045441797810e+001	(-1.67349541993839e+001dB,8.16241370090068e+001°)
1.33659551654645e+001	(-1.66957674783094e+001dB,8.15859901991151e+001°)
1.34276496113787e+001	(-1.66565881279742e+001dB,8.15476743499209e+001°)
1.34896288259166e+001	(-1.66174162137672e+001dB,8.15091887763907e+001°)
1.35518941235104e+001	(-1.65782518016316e+001dB,8.14705327915925e+001°)
1.36144468246596e+001	(-1.65390949580693e+001dB,8.14317057067031e+001°)
1.36772882559586e+001	(-1.64999457501450e+001dB,8.13927068310157e+001°)
1.37404197501252e+001	(-1.64608042454907e+001dB,8.13535354719478e+001°)
1.38038426460289e+001	(-1.64216705123097e+001dB,8.13141909350497e+001°)
1.38675582887190e+001	(-1.63825446193812e+001dB,8.12746725240121e+001°)
1.39315680294531e+001	(-1.63434266360644e+001dB,8.12349795406757e+001°)
1.39958732257263e+001	(-1.63043166323032e+001dB,8.11951112850392e+001°)
1.40604752412992e+001	(-1.62652146786304e+001dB,8.11550670552688e+001°)
1.41253754462276e+001	(-1.62261208461719e+001dB,8.11148461477076e+001°)
1.41905752168910e+001	(-1.61870352066516e+001dB,8.10744478568851e+001°)
1.42560759360220e+001	(-1.61479578323956e+001dB,8.10338714755270e+001°)
1.43218789927355e+001	(-1.61088887963368e+001dB,8.09931162945654e+001°)
1.43879857825585e+001	(-1.60698281720192e+001dB,8.09521816031493e+001°)
1.44543977074594e+001	(-1.60307760336026e+001dB,8.09110666886553e+001°)
1.45211161758775e+001	(-1.59917324558674e+001dB,8.08697708366981e+001°)
1.45881426027536e+001	(-1.59526975142184e+001dB,8.08282933311423e+001°)
1.46554784095592e+001	(-1.59136712846906e+001dB,8.07866334541135e+001°)
1.47231250243273e+001	(-1.58746538439526e+001dB,8.07447904860102e+001°)
1.47910838816822e+001	(-1.58356452693121e+001dB,8.07027637055159e+001°)
1.48593564228702e+001	(-1.57966456387202e+001dB,8.06605523896113e+001°)
1.49279440957900e+001	(-1.57576550307762e+001dB,8.06181558135872e+001°)
1.49968483550238e+001	(-1.57186735247322e+001dB,8.05755732510573e+001°)
1.50660706618675e+001	(-1.56797012004980e+001dB,8.05328039739711e+001°)
1.51356124843622e+001	(-1.56407381386458e+001dB,8.04898472526282e+001°)
1.52054752973250e+001	(-1.56017844204150e+001dB,8.04467023556914e+001°)
1.52756605823808e+001	(-1.55628401277169e+001dB,8.04033685502015e+001°)
1.53461698279930e+001	(-1.55239053431395e+001dB,8.03598451015911e+001°)
1.54170045294957e+001	(-1.54849801499527e+001dB,8.03161312737001e+001°)
1.54881661891249e+001	(-1.54460646321126e+001dB,8.02722263287903e+001°)
1.55596563160508e+001	(-1.54071588742670e+001dB,8.02281295275610e+001°)
1.56314764264096e+001	(-1.53682629617597e+001dB,8.01838401291651e+001°)
1.57036280433356e+001	(-1.53293769806360e+001dB,8.01393573912247e+001°)
1.57761126969936e+001	(-1.52905010176471e+001dB,8.00946805698479e+001°)
1.58489319246112e+001	(-1.52516351602556e+001dB,8.00498089196454e+001°)
1.59220872705118e+001	(-1.52127794966400e+001dB,8.00047416937479e+001°)
1.59955802861468e+001	(-1.51739341157002e+001dB,7.99594781438234e+001°)
1.60694125301289e+001	(-1.51350991070619e+001dB,7.99140175200949e+001°)
1.61435855682650e+001	(-1.50962745610824e+001dB,7.98683590713591e+001°)
1.62181009735894e+001	(-1.50574605688549e+001dB,7.98225020450046e+001°)
1.62929603263973e+001	(-1.50186572222143e+001dB,7.97764456870309e+001°)
1.63681652142782e+001	(-1.49798646137416e+001dB,7.97301892420677e+001°)
1.64437172321494e+001	(-1.49410828367696e+001dB,7.96837319533947e+001°)
1.65196179822903e+001	(-1.49023119853878e+001dB,7.96370730629617e+001°)
1.65958690743757e+001	(-1.48635521544473e+001dB,7.95902118114088e+001°)
1.66724721255107e+001	(-1.48248034395666e+001dB,7.95431474380876e+001°)
1.67494287602645e+001	(-1.47860659371362e+001dB,7.94958791810822e+001°)
1.68267406107048e+001	(-1.47473397443240e+001dB,7.94484062772308e+001°)
1.69044093164328e+001	(-1.47086249590805e+001dB,7.94007279621481e+001°)
1.69824365246176e+001	(-1.46699216801442e+001dB,7.93528434702471e+001°)
1.70608238900314e+001	(-1.46312300070465e+001dB,7.93047520347627e+001°)
1.71395730750844e+001	(-1.45925500401176e+001dB,7.92564528877745e+001°)
1.72186857498602e+001	(-1.45538818804908e+001dB,7.92079452602306e+001°)
1.72981635921511e+001	(-1.45152256301087e+001dB,7.91592283819718e+001°)
1.73780082874939e+001	(-1.44765813917281e+001dB,7.91103014817559e+001°)
1.74582215292052e+001	(-1.44379492689253e+001dB,7.90611637872831e+001°)
1.75388050184177e+001	(-1.43993293661016e+001dB,7.90118145252211e+001°)
1.76197604641164e+001	(-1.43607217884885e+001dB,7.89622529212309e+001°)
1.77010895831743e+001	(-1.43221266421530e+001dB,7.89124781999934e+001°)
1.77827941003894e+001	(-1.42835440340034e+001dB,7.88624895852359e+001°)
1.78648757485207e+001	(-1.42449740717939e+001dB,7.88122862997596e+001°)
1.79473362683254e+001	(-1.42064168641309e+001dB,7.87618675654669e+001°)
1.80301774085958e+001	(-1.41678725204777e+001dB,7.87112326033897e+001°)
1.81134009261962e+001	(-1.41293411511601e+001dB,7.86603806337183e+001°)
1.81970085861000e+001	(-1.40908228673720e+001dB,7.86093108758301e+001°)
1.82810021614276e+001	(-1.40523177811808e+001dB,7.85580225483192e+001°)
1.83653834334836e+001	(-1.40138260055325e+001dB,7.85065148690266e+001°)
1.84501541917949e+001	(-1.39753476542576e+001dB,7.84547870550708e+001°)
1.85353162341483e+001	(-1.39368828420761e+001dB,7.84028383228787e+001°)
1.86208713666288e+001	(-1.38984316846035e+001dB,7.83506678882171e+001°)
1.87068214036582e+001	(-1.38599942983557e+001dB,7.82982749662247e+001°)
1.87931681680328e+001	(-1.38215708007548e+001dB,7.82456587714449e+001°)
1.88799134909631e+001	(-1.37831613101346e+001dB,7.81928185178587e+001°)
1.89670592121116e+001	(-1.37447659457457e+001dB,7.81397534189181e+001°)
1.90546071796326e+001	(-1.37063848277616e+001dB,7.80864626875804e+001°)
1.91425592502110e+001	(-1.36680180772836e+001dB,7.80329455363430e+001°)
1.92309172891018e+001	(-1.36296658163464e+001dB,7.79792011772780e+001°)
1.93196831701694e+001	(-1.35913281679242e+001dB,7.79252288220684e+001°)
1.94088587759280e+001	(-1.35530052559350e+001dB,7.78710276820443e+001°)
1.94984459975806e+001	(-1.35146972052474e+001dB,7.78165969682193e+001°)
1.95884467350601e+001	(-1.34764041416850e+001dB,7.77619358913281e+001°)
1.96788628970686e+001	(-1.34381261920327e+001dB,7.77070436618646e+001°)
1.97696964011188e+001	(-1.33998634840415e+001dB,7.76519194901197e+001°)
1.98609491735739e+001	(-1.33616161464344e+001dB,7.75965625862212e+001°)
1.99526231496890e+001	(-1.33233843089120e+001dB,7.75409721601724e+001°)
2.00447202736518e+001	(-1.32851681021575e+001dB,7.74851474218932e+001°)
2.01372424986241e+001	(-1.32469676578423e+001dB,7.74290875812600e+001°)
2.02301917867829e+001	(-1.32087831086319e+001dB,7.73727918481479e+001°)
2.03235701093624e+001	(-1.31706145881907e+001dB,7.73162594324716e+001°)
2.04173794466955e+001	(-1.31324622311880e+001dB,7.72594895442288e+001°)
2.05116217882559e+001	(-1.30943261733030e+001dB,7.72024813935427e+001°)
2.06062991327002e+001	(-1.30562065512305e+001dB,7.71452341907063e+001°)
2.07014134879106e+001	(-1.30181035026861e+001dB,7.70877471462260e+001°)
2.07969668710372e+001	(-1.29800171664119e+001dB,7.70300194708671e+001°)
2.08929613085406e+001	(-1.29419476821816e+001dB,7.69720503756991e+001°)
2.09893988362354e+001	(-1.29038951908059e+001dB,7.69138390721419e+001°)
2.10862814993331e+001	(-1.28658598341381e+001dB,7.68553847720126e+001°)
2.11836113524852e+001	(-1.28278417550792e+001dB,7.67966866875730e+001°)
2.12813904598273e+001	(-1.27898410975834e+001dB,7.67377440315776e+001°)
2.13796208950225e+001	(-1.27518580066630e+001dB,7.66785560173223e+001°)
2.14783047413056e+001	(-1.27138926283944e+001dB,7.66191218586936e+001°)
2.15774440915269e+001	(-1.26759451099227e+001dB,7.65594407702190e+001°)
2.16770410481972e+001	(-1.26380155994673e+001dB,7.64995119671174e+001°)
2.17770977235318e+001	(-1.26001042463271e+001dB,7.64393346653503e+001°)
2.18776162394957e+001	(-1.25622112008857e+001dB,7.63789080816740e+001°)
2.19785987278485e+001	(-1.25243366146162e+001dB,7.63182314336919e+001°)
2.20800473301892e+001	(-1.24864806400871e+001dB,7.62573039399086e+001°)
2.21819641980024e+001	(-1.24486434309668e+001dB,7.61961248197827e+001°)
2.22843514927033e+001	(-1.24108251420288e+001dB,7.61346932937826e+001°)
2.23872113856836e+001	(-1.23730259291571e+001dB,7.60730085834412e+001°)
2.24905460583581e+001	(-1.23352459493507e+001dB,7.60110699114121e+001°)
2.25943577022100e+001	(-1.22974853607294e+001dB,7.59488765015263e+001°)
2.26986485188385e+001	(-1.22597443225377e+001dB,7.58864275788499e+001°)
2.28034207200044e+001	(-1.22220229951508e+001dB,7.58237223697417e+001°)
2.29086765276780e+001	(-1.21843215400787e+001dB,7.57607601019126e+001°)
2.30144181740853e+001	(-1.21466401199717e+001dB,7.56975400044849e+001°)
2.31206479017562e+001	(-1.21089788986246e+001dB,7.56340613080522e+001°)
2.32273679635713e+001	(-1.20713380409819e+001dB,7.55703232447411e+001°)
2.33345806228103e+001	(-1.20337177131427e+001dB,7.55063250482724e+001°)
2.34422881531995e+001	(-1.19961180823648e+001dB,7.54420659540234e+001°)
2.35504928389604e+001	(-1.19585393170699e+001dB,7.53775451990916e+001°)
2.36591969748579e+001	(-1.19209815868480e+001dB,7.53127620223578e+001°)
2.37684028662490e+001	(-1.18834450624619e+001dB,7.52477156645516e+001°)
2.38781128291321e+001	(-1.18459299158520e+001dB,7.51824053683158e+001°)
2.39883291901952e+001	(-1.18084363201403e+001dB,7.51168303782732e+001°)
2.40990542868662e+001	(-1.17709644496354e+001dB,7.50509899410930e+001°)
2.42102904673621e+001	(-1.17335144798363e+001dB,7.49848833055586e+001°)
2.43220400907384e+001	(-1.16960865874369e+001dB,7.49185097226358e+001°)
2.44343055269400e+001	(-1.16586809503307e+001dB,7.48518684455418e+001°)
2.45470891568506e+001	(-1.16212977476141e+001dB,7.47849587298150e+001°)
2.46603933723437e+001	(-1.15839371595913e+001dB,7.47177798333859e+001°)
2.47742205763332e+001	(-1.15465993677781e+001dB,7.46503310166481e+001°)
2.48885731828242e+001	(-1.15092845549058e+001dB,7.45826115425302e+001°)
2.50034536169646e+001	(-1.14719929049253e+001dB,7.45146206765694e+001°)
2.51188643150961e+001	(-1.14347246030109e+001dB,7.44463576869842e+001°)
2.52348077248061e+001	(-1.13974798355641e+001dB,7.43778218447494e+001°)
2.53512863049794e+001	(-1.13602587902172e+001dB,7.43090124236711e+001°)
2.54683025258507e+001	(-1.13230616558375e+001dB,7.42399287004626e+001°)
2.55858588690568e+001	(-1.12858886225302e+001dB,7.41705699548209e+001°)
2.57039578276890e+001	(-1.12487398816422e+001dB,7.41009354695046e+001°)
2.58226019063463e+001	(-1.12116156257656e+001dB,7.40310245304119e+001°)
2.59417936211885e+001	(-1.11745160487412e+001dB,7.39608364266593e+001°)
2.60615354999893e+001	(-1.11374413456613e+001dB,7.38903704506621e+001°)
2.61818300821902e+001	(-1.11003917128732e+001dB,7.38196258982145e+001°)
2.63026799189542e+001	(-1.10633673479824e+001dB,7.37486020685708e+001°)
2.64240875732198e+001	(-1.10263684498554e+001dB,7.36772982645282e+001°)
2.65460556197557e+001	(-1.09893952186227e+001dB,7.36057137925090e+001°)
2.66685866452152e+001	(-1.09524478556816e+001dB,7.35338479626447e+001°)
2.67916832481907e+001	(-1.09155265636990e+001dB,7.34617000888603e+001°)
2.69153480392695e+001	(-1.08786315466141e+001dB,7.33892694889598e+001°)
2.70395836410888e+001	(-1.08417630096407e+001dB,7.33165554847119e+001°)
2.71643926883912e+001	(-1.08049211592700e+001dB,7.32435574019371e+001°)
2.72897778280808e+001	(-1.07681062032727e+001dB,7.31702745705951e+001°)
2.74157417192792e+001	(-1.07313183507011e+001dB,7.30967063248732e+001°)
2.75422870333820e+001	(-1.06945578118917e+001dB,7.30228520032757e+001°)
2.76694164541155e+001	(-1.06578247984668e+001dB,7.29487109487134e+001°)
2.77971326775933e+001	(-1.06211195233365e+001dB,7.28742825085948e+001°)
2.79254384123738e+001	(-1.05844422007008e+001dB,7.27995660349170e+001°)
2.80543363795175e+001	(-1.05477930460508e+001dB,7.27245608843585e+001°)
2.81838293126449e+001	(-1.05111722761705e+001dB,7.26492664183718e+001°)
2.83139199579942e+001	(-1.04745801091385e+001dB,7.25736820032775e+001°)
2.84446110744796e+001	(-1.04380167643289e+001dB,7.24978070103586e+001°)
2.85759054337499e+001	(-1.04014824624125e+001dB,7.24216408159560e+001°)
2.87078058202473e+001	(-1.03649774253585e+001dB,7.23451828015644e+001°)
2.88403150312665e+001	(-1.03285018764346e+001dB,7.22684323539292e+001°)
2.89734358770136e+001	(-1.02920560402082e+001dB,7.21913888651441e+001°)
2.91071711806665e+001	(-1.02556401425474e+001dB,7.21140517327496e+001°)
2.92415237784338e+001	(-1.02192544106208e+001dB,7.20364203598316e+001°)
2.93764965196157e+001	(-1.01828990728987e+001dB,7.19584941551216e+001°)
2.95120922666643e+001	(-1.01465743591525e+001dB,7.18802725330973e+001°)
2.96483138952439e+001	(-1.01102805004558e+001dB,7.18017549140835e+001°)
2.97851642942923e+001	(-1.00740177291835e+001dB,7.17229407243545e+001°)
2.99226463660823e+001	(-1.00377862790120e+001dB,7.16438293962367e+001°)
3.00607630262828e+001	(-1.00015863849189e+001dB,7.15644203682119e+001°)
3.01995172040206e+001	(-9.96541828318242e+000dB,7.14847130850216e+001°)
3.03389118419432e+001	(-9.92928221138085e+000dB,7.14047069977720e+001°)
3.04789498962803e+001	(-9.89317840839154e+000dB,7.13244015640392e+001°)
3.06196343369072e+001	(-9.85710711439016e+000dB,7.12437962479759e+001°)
3.07609681474075e+001	(-9.82106857084945e+000dB,7.11628905204179e+001°)
3.09029543251364e+001	(-9.78506302053798e+000dB,7.10816838589920e+001°)
3.10455958812840e+001	(-9.74909070751861e+000dB,7.10001757482244e+001°)
3.11888958409398e+001	(-9.71315187714693e+000dB,7.09183656796492e+001°)
3.13328572431563e+001	(-9.67724677606943e+000dB,7.08362531519183e+001°)
3.14774831410136e+001	(-9.64137565222146e+000dB,7.07538376709119e+001°)
3.16227766016843e+001	(-9.60553875482514e+000dB,7.06711187498490e+001°)
3.17687407064982e+001	(-9.56973633438692e+000dB,7.05880959093988e+001°)
3.19153785510081e+001	(-9.53396864269512e+000dB,7.05047686777934e+001°)
3.20626932450552e+001	(-9.49823593281717e+000dB,7.04211365909401e+001°)
3.22106879128349e+001	(-9.46253845909668e+000dB,7.03371991925349e+001°)
3.23593656929633e+001	(-9.42687647715035e+000dB,7.02529560341765e+001°)
3.25087297385440e+001	(-9.39125024386468e+000dB,7.01684066754805e+001°)
3.26587832172341e+001	(-9.35566001739243e+000dB,7.00835506841950e+001°)
3.28095293113124e+001	(-9.32010605714896e+000dB,6.99983876363157e+001°)
3.29609712177463e+001	(-9.28458862380827e+000dB,6.99129171162026e+001°)
3.31131121482597e+001	(-9.24910797929891e+000dB,6.98271387166963e+001°)
3.32659553294010e+001	(-9.21366438679969e+000dB,6.97410520392352e+001°)
3.34195040026120e+001	(-9.17825811073511e+000dB,6.96546566939738e+001°)
3.35737614242960e+001	(-9.14288941677060e+000dB,6.95679522999003e+001°)
3.37287308658874e+001	(-9.10755857180756e+000dB,6.94809384849556e+001°)
3.38844156139208e+001	(-9.07226584397820e+000dB,6.93936148861525e+001°)
3.40408189701007e+001	(-9.03701150264012e+000dB,6.93059811496952e+001°)
3.41979442513715e+001	(-9.00179581837067e+000dB,6.92180369310995e+001°)
3.43557947899880e+001	(-8.96661906296109e+000dB,6.91297818953132e+001°)
3.45143739335862e+001	(-8.93148150941041e+000dB,6.90412157168369e+001°)
3.46736850452537e+001	(-8.89638343191913e+000dB,6.89523380798454e+001°)
3.48337315036018e+001	(-8.86132510588271e+000dB,6.88631486783095e+001°)
3.49945167028363e+001	(-8.82630680788470e+000dB,6.87736472161177e+001°)
